T69CC 90955:661.312   SEGGER J-Link V8.96 Log File
T69CC 90955:661.312   DLL Compiled: Dec 18 2025 16:46:38
T69CC 90955:661.312   Logging started @ 2026-02-01 15:40
T69CC 90955:661.312   Process: D:\Keil_v5\UV4\UV4.exe
T69CC 90955:661.312 - 945398.592ms 
T69CC 90955:661.312 JLINK_SetWarnOutHandler(...)
T69CC 90955:661.312 - 0.006ms 
T69CC 90955:661.312 JLINK_OpenEx(...)
T69CC 90955:661.312   Firmware: J-Link V9 compiled May  7 2021 16:26:12
T69CC 90955:661.312   Firmware: J-Link V9 compiled May  7 2021 16:26:12
T69CC 90955:661.312   Decompressing FW timestamp took 135 us
T69CC 90955:669.504   Hardware: V9.70
T69CC 90955:669.504   S/N: 602712589
T69CC 90955:669.504   OEM: SEGGER
T69CC 90955:669.504   Feature(s): GDB, RDI, FlashBP, FlashDL, JFlash
T69CC 90955:677.696   Bootloader: (FW returned invalid version)
T69CC 90955:677.696   TELNET listener socket opened on port 19021
T69CC 90955:685.888   WEBSRV WEBSRV_Init(): Starting webserver thread(s)
T69CC 90955:685.888   WEBSRV Webserver running on local port 19080
T69CC 90955:685.888   Looking for J-Link GUI Server exe at: D:\Keil_v5\ARM\Segger\JLinkGUIServer.exe
T69CC 90955:685.888   Looking for J-Link GUI Server exe at: C:\Program Files\SEGGER\JLink_V896\JLinkGUIServer.exe
T69CC 90955:685.888   Forking J-Link GUI Server: C:\Program Files\SEGGER\JLink_V896\JLinkGUIServer.exe
T69CC 90955:776.000   J-Link GUI Server info: "J-Link GUI server V8.96 "
T69CC 90955:792.384 - 129.230ms returns "O.K."
T69CC 90955:792.384 JLINK_GetEmuCaps()
T69CC 90955:792.384 - 0.005ms returns 0xB9FF7BBF
T69CC 90955:792.384 JLINK_TIF_GetAvailable(...)
T69CC 90955:792.384 - 0.280ms 
T69CC 90955:792.384 JLINK_SetErrorOutHandler(...)
T69CC 90955:792.384 - 0.004ms 
T69CC 90955:792.384 JLINK_ExecCommand("ProjectFile = "C:\Users\lhy\OneDrive\Desktop\Spiral Hand PCB\Spiral Hand PCB\SoftWare\MultiChannelLdc\MDK-ARM\JLinkSettings.ini"", ...). 
T69CC 90955:792.384 - 2.120ms returns 0x00
T69CC 90955:792.384 JLINK_ExecCommand("Device = STM32F405RGTx", ...). 
T69CC 90955:792.384   Device "STM32F405RG" selected.
T69CC 90955:792.384 - 3.188ms returns 0x00
T69CC 90955:792.384 JLINK_ExecCommand("DisableConnectionTimeout", ...). 
T69CC 90955:792.384   ERROR: Unknown command
T69CC 90955:792.384 - 0.016ms returns 0x01
T69CC 90955:792.384 JLINK_GetHardwareVersion()
T69CC 90955:792.384 - 0.009ms returns 97000
T69CC 90955:792.384 JLINK_GetDLLVersion()
T69CC 90955:792.384 - 0.008ms returns 89600
T69CC 90955:792.384 JLINK_GetOEMString(...)
T69CC 90955:792.384 JLINK_GetFirmwareString(...)
T69CC 90955:792.384 - 0.008ms 
T69CC 90955:808.768 JLINK_GetDLLVersion()
T69CC 90955:808.768 - 0.033ms returns 89600
T69CC 90955:808.768 JLINK_GetCompileDateTime()
T69CC 90955:808.768 - 0.007ms 
T69CC 90955:816.960 JLINK_GetFirmwareString(...)
T69CC 90955:816.960 - 0.016ms 
T69CC 90955:825.152 JLINK_GetHardwareVersion()
T69CC 90955:825.152 - 0.018ms returns 97000
T69CC 90955:825.152 JLINK_GetSN()
T69CC 90955:825.152 - 0.016ms returns 602712589
T69CC 90955:825.152 JLINK_GetOEMString(...)
T69CC 90955:833.344 JLINK_TIF_Select(JLINKARM_TIF_SWD)
T69CC 90955:833.344 - 1.152ms returns 0x00
T69CC 90955:833.344 JLINK_HasError()
T69CC 90955:833.344 JLINK_SetSpeed(10000)
T69CC 90955:833.344 - 0.247ms 
T69CC 90955:833.344 JLINK_GetId()
T69CC 90955:841.536   InitTarget() start
T69CC 90955:841.536    J-Link Script File: Executing InitTarget()
T69CC 90955:841.536   SWD selected. Executing JTAG -> SWD switching sequence.
T69CC 90955:849.728   DAP initialized successfully.
T69CC 90955:866.112   InitTarget() end - Took 17.0ms
T69CC 90955:866.112   Found SW-DP with ID 0x2BA01477
T69CC 90955:874.304   DPIDR: 0x2BA01477
T69CC 90955:882.496   CoreSight SoC-400 or earlier
T69CC 90955:882.496   Scanning AP map to find all available APs
T69CC 90955:890.688   AP[1]: Stopped AP scan as end of AP map has been reached
T69CC 90955:890.688   AP[0]: AHB-AP (IDR: 0x24770011, ADDR: 0x00000000)
T69CC 90955:890.688   Iterating through AP map to find AHB-AP to use
T69CC 90955:890.688   AP[0]: Core found
T69CC 90955:898.880   AP[0]: AHB-AP ROM base: 0xE00FF000
T69CC 90955:907.072   CPUID register: 0x410FC241. Implementer code: 0x41 (ARM)
T69CC 90955:907.072   Found Cortex-M4 r0p1, Little endian.
T69CC 90955:915.264   -- Max. mem block: 0x00010C40
T69CC 90955:915.264   CPU_ReadMem(4 bytes @ 0xE000EDF0)
T69CC 90955:915.264   CPU_ReadMem(4 bytes @ 0xE0002000)
T69CC 90955:915.264   FPUnit: 6 code (BP) slots and 2 literal slots
T69CC 90955:915.264   CPU_ReadMem(4 bytes @ 0xE000EDFC)
T69CC 90955:915.264   CPU_WriteMem(4 bytes @ 0xE000EDFC)
T69CC 90955:915.264   CPU_ReadMem(4 bytes @ 0xE0001000)
T69CC 90955:923.456   CPU_WriteMem(4 bytes @ 0xE0001000)
T69CC 90955:923.456   CPU_ReadMem(4 bytes @ 0xE000ED88)
T69CC 90955:923.456   CPU_WriteMem(4 bytes @ 0xE000ED88)
T69CC 90955:923.456   CPU_ReadMem(4 bytes @ 0xE000ED88)
T69CC 90955:923.456   CPU_WriteMem(4 bytes @ 0xE000ED88)
T69CC 90955:923.456   CoreSight components:
T69CC 90955:923.456   ROMTbl[0] @ E00FF000
T69CC 90955:923.456   CPU_ReadMem(64 bytes @ 0xE00FF000)
T69CC 90955:931.648   CPU_ReadMem(32 bytes @ 0xE000EFE0)
T69CC 90955:931.648   [0][0]: E000E000 CID B105E00D PID 000BB00C SCS-M7
T69CC 90955:931.648   CPU_ReadMem(32 bytes @ 0xE0001FE0)
T69CC 90955:939.840   [0][1]: E0001000 CID B105E00D PID 003BB002 DWT
T69CC 90955:939.840   CPU_ReadMem(32 bytes @ 0xE0002FE0)
T69CC 90955:939.840   [0][2]: E0002000 CID B105E00D PID 002BB003 FPB
T69CC 90955:939.840   CPU_ReadMem(32 bytes @ 0xE0000FE0)
T69CC 90955:948.032   [0][3]: E0000000 CID B105E00D PID 003BB001 ITM
T69CC 90955:948.032   CPU_ReadMem(32 bytes @ 0xE0040FE0)
T69CC 90955:956.224   [0][4]: E0040000 CID B105900D PID 000BB9A1 TPIU
T69CC 90955:956.224   CPU_ReadMem(32 bytes @ 0xE0041FE0)
T69CC 90955:956.224   [0][5]: E0041000 CID B105900D PID 000BB925 ETM
T69CC 90955:956.224 - 117.896ms returns 0x2BA01477
T69CC 90955:956.224 JLINK_GetDLLVersion()
T69CC 90955:956.224 - 0.004ms returns 89600
T69CC 90955:956.224 JLINK_CORE_GetFound()
T69CC 90955:956.224 - 0.004ms returns 0xE0000FF
T69CC 90955:956.224 JLINK_GetDebugInfo(0x100 = JLINKARM_ROM_TABLE_ADDR_INDEX)
T69CC 90955:956.224   Value=0xE00FF000
T69CC 90955:956.224 - 0.010ms returns 0
T69CC 90955:956.224 JLINK_GetDebugInfo(0x100 = JLINKARM_ROM_TABLE_ADDR_INDEX)
T69CC 90955:956.224   Value=0xE00FF000
T69CC 90955:956.224 - 0.019ms returns 0
T69CC 90955:956.224 JLINK_GetDebugInfo(0x101 = JLINKARM_DEBUG_INFO_ETM_ADDR_INDEX)
T69CC 90955:956.224   Value=0xE0041000
T69CC 90955:956.224 - 0.009ms returns 0
T69CC 90955:956.224 JLINK_ReadMemEx(0xE0041FD0, 0x20 Bytes, Flags = 0x02000004)
T69CC 90955:956.224   CPU_ReadMem(32 bytes @ 0xE0041FD0)
T69CC 90955:956.224   Data:  04 00 00 00 00 00 00 00 00 00 00 00 00 00 00 00 ...
T69CC 90955:956.224 - 0.890ms returns 32 (0x20)
T69CC 90955:956.224 JLINK_GetDebugInfo(0x102 = JLINKARM_DEBUG_INFO_MTB_ADDR_INDEX)
T69CC 90955:956.224   Value=0x00000000
T69CC 90955:956.224 - 0.008ms returns 0
T69CC 90955:956.224 JLINK_GetDebugInfo(0x103 = JLINKARM_DEBUG_INFO_TPIU_ADDR_INDEX)
T69CC 90955:956.224   Value=0xE0040000
T69CC 90955:956.224 - 0.009ms returns 0
T69CC 90955:956.224 JLINK_GetDebugInfo(0x104 = JLINKARM_DEBUG_INFO_ITM_ADDR_INDEX)
T69CC 90955:956.224   Value=0xE0000000
T69CC 90955:956.224 - 0.008ms returns 0
T69CC 90955:956.224 JLINK_GetDebugInfo(0x105 = JLINKARM_DEBUG_INFO_DWT_ADDR_INDEX)
T69CC 90955:956.224   Value=0xE0001000
T69CC 90955:956.224 - 0.008ms returns 0
T69CC 90955:956.224 JLINK_GetDebugInfo(0x106 = JLINKARM_DEBUG_INFO_FPB_ADDR_INDEX)
T69CC 90955:956.224   Value=0xE0002000
T69CC 90955:956.224 - 0.009ms returns 0
T69CC 90955:956.224 JLINK_GetDebugInfo(0x107 = JLINKARM_DEBUG_INFO_NVIC_ADDR_INDEX)
T69CC 90955:956.224   Value=0xE000E000
T69CC 90955:956.224 - 0.008ms returns 0
T69CC 90955:956.224 JLINK_GetDebugInfo(0x10C = JLINKARM_DEBUG_INFO_DBG_ADDR_INDEX)
T69CC 90955:956.224   Value=0xE000EDF0
T69CC 90955:956.224 - 0.010ms returns 0
T69CC 90955:956.224 JLINK_GetDebugInfo(0x01 = Unknown)
T69CC 90955:956.224   Value=0x00000001
T69CC 90955:956.224 - 0.010ms returns 0
T69CC 90955:956.224 JLINK_ReadMemU32(0xE000ED00, 0x1 Items)
T69CC 90955:956.224   CPU_ReadMem(4 bytes @ 0xE000ED00)
T69CC 90955:956.224   Data:  41 C2 0F 41
T69CC 90955:956.224   Debug reg: CPUID
T69CC 90955:956.224 - 0.535ms returns 1 (0x1)
T69CC 90955:956.224 JLINK_GetDebugInfo(0x10F = JLINKARM_DEBUG_INFO_HAS_CORTEX_M_SECURITY_EXT_INDEX)
T69CC 90955:956.224   Value=0x00000000
T69CC 90955:956.224 - 0.011ms returns 0
T69CC 90955:956.224 JLINK_HasError()
T69CC 90955:956.224 JLINK_SetResetType(JLINKARM_CM3_RESET_TYPE_NORMAL)
T69CC 90955:956.224 - 0.004ms returns JLINKARM_CM3_RESET_TYPE_NORMAL
T69CC 90955:956.224 JLINK_Reset()
T69CC 90955:956.224   JLINK_GetResetTypeDesc
T69CC 90955:956.224   - 0.004ms 
T69CC 90955:956.224   Reset type: NORMAL (https://kb.segger.com/J-Link_Reset_Strategies)
T69CC 90955:956.224   CPU is running
T69CC 90955:956.224   CPU_WriteMem(4 bytes @ 0xE000EDF0)
T69CC 90955:956.224   CPU is running
T69CC 90955:956.224   CPU_WriteMem(4 bytes @ 0xE000EDFC)
T69CC 90955:964.416   Reset: Halt core after reset via DEMCR.VC_CORERESET.
T69CC 90955:964.416   Reset: Reset device via AIRCR.SYSRESETREQ.
T69CC 90955:964.416   CPU is running
T69CC 90955:964.416   CPU_WriteMem(4 bytes @ 0xE000ED0C)
T69CC 90956:021.760   CPU_ReadMem(4 bytes @ 0xE000EDF0)
T69CC 90956:021.760   CPU_ReadMem(4 bytes @ 0xE000EDF0)
T69CC 90956:021.760   CPU_WriteMem(4 bytes @ 0xE000EDFC)
T69CC 90956:029.952   CPU_ReadMem(4 bytes @ 0xE000EDF0)
T69CC 90956:038.144   CPU_WriteMem(4 bytes @ 0xE0002000)
T69CC 90956:038.144   CPU_ReadMem(4 bytes @ 0xE000EDFC)
T69CC 90956:038.144   CPU_ReadMem(4 bytes @ 0xE0001000)
T69CC 90956:038.144 - 79.422ms 
T69CC 90956:038.144 JLINK_Halt()
T69CC 90956:038.144 - 0.008ms returns 0x00
T69CC 90956:038.144 JLINK_ReadMemU32(0xE000EDF0, 0x1 Items)
T69CC 90956:038.144   CPU_ReadMem(4 bytes @ 0xE000EDF0)
T69CC 90956:038.144   Data:  03 00 03 00
T69CC 90956:038.144   Debug reg: DHCSR
T69CC 90956:038.144 - 0.347ms returns 1 (0x1)
T69CC 90956:038.144 JLINK_WriteU32(0xE000EDF0, 0xA05F0003)
T69CC 90956:038.144   Debug reg: DHCSR
T69CC 90956:038.144   CPU_WriteMem(4 bytes @ 0xE000EDF0)
T69CC 90956:038.144 - 0.923ms returns 0 (0x00000000)
T69CC 90956:038.144 JLINK_WriteU32(0xE000EDFC, 0x01000000)
T69CC 90956:038.144   Debug reg: DEMCR
T69CC 90956:038.144   CPU_WriteMem(4 bytes @ 0xE000EDFC)
T69CC 90956:038.144 - 0.450ms returns 0 (0x00000000)
T69CC 90956:054.528 JLINK_GetHWStatus(...)
T69CC 90956:054.528 - 0.394ms returns 0
T69CC 90956:070.912 JLINK_GetNumBPUnits(Type = 0xFFFFFF00)
T69CC 90956:070.912 - 0.011ms returns 0x06
T69CC 90956:070.912 JLINK_GetNumBPUnits(Type = 0xF0)
T69CC 90956:070.912 - 0.003ms returns 0x2000
T69CC 90956:070.912 JLINK_GetNumWPUnits()
T69CC 90956:070.912 - 0.004ms returns 4
T69CC 90956:079.104 JLINK_GetSpeed()
T69CC 90956:079.104 - 0.014ms returns 6000
T69CC 90956:087.296 JLINK_ReadMemU32(0xE000E004, 0x1 Items)
T69CC 90956:087.296   CPU_ReadMem(4 bytes @ 0xE000E004)
T69CC 90956:087.296   Data:  02 00 00 00
T69CC 90956:087.296 - 0.491ms returns 1 (0x1)
T69CC 90956:087.296 JLINK_ReadMemU32(0xE000E004, 0x1 Items)
T69CC 90956:087.296   CPU_ReadMem(4 bytes @ 0xE000E004)
T69CC 90956:087.296   Data:  02 00 00 00
T69CC 90956:087.296 - 0.415ms returns 1 (0x1)
T69CC 90956:087.296 JLINK_WriteMemEx(0xE0001000, 0x0000001C Bytes, Flags = 0x02000004)
T69CC 90956:087.296   Data:  01 00 00 00 00 00 00 00 00 00 00 00 00 00 00 00 ...
T69CC 90956:087.296   CPU_WriteMem(28 bytes @ 0xE0001000)
T69CC 90956:087.296 - 0.424ms returns 0x1C
T69CC 90956:087.296 JLINK_Halt()
T69CC 90956:087.296 - 0.003ms returns 0x00
T69CC 90956:087.296 JLINK_IsHalted()
T69CC 90956:087.296 - 0.004ms returns TRUE
T69CC 90956:087.296 JLINK_WriteMem(0x20000000, 0x184 Bytes, ...)
T69CC 90956:087.296   Data:  00 BE 0A E0 0D 78 2D 06 68 40 08 24 40 00 00 D3 ...
T69CC 90956:087.296   CPU_WriteMem(388 bytes @ 0x20000000)
T69CC 90956:087.296 - 2.242ms returns 0x184
T69CC 90956:087.296 JLINK_HasError()
T69CC 90956:087.296 JLINK_WriteReg(R0, 0x08000000)
T69CC 90956:087.296 - 0.006ms returns 0
T69CC 90956:087.296 JLINK_WriteReg(R1, 0x007A1200)
T69CC 90956:087.296 - 0.006ms returns 0
T69CC 90956:087.296 JLINK_WriteReg(R2, 0x00000001)
T69CC 90956:087.296 - 0.004ms returns 0
T69CC 90956:087.296 JLINK_WriteReg(R3, 0x00000000)
T69CC 90956:087.296 - 0.003ms returns 0
T69CC 90956:087.296 JLINK_WriteReg(R4, 0x00000000)
T69CC 90956:087.296 - 0.003ms returns 0
T69CC 90956:087.296 JLINK_WriteReg(R5, 0x00000000)
T69CC 90956:087.296 - 0.003ms returns 0
T69CC 90956:087.296 JLINK_WriteReg(R6, 0x00000000)
T69CC 90956:087.296 - 0.008ms returns 0
T69CC 90956:087.296 JLINK_WriteReg(R7, 0x00000000)
T69CC 90956:087.296 - 0.003ms returns 0
T69CC 90956:087.296 JLINK_WriteReg(R8, 0x00000000)
T69CC 90956:087.296 - 0.004ms returns 0
T69CC 90956:087.296 JLINK_WriteReg(R9, 0x20000180)
T69CC 90956:087.296 - 0.003ms returns 0
T69CC 90956:087.296 JLINK_WriteReg(R10, 0x00000000)
T69CC 90956:087.296 - 0.003ms returns 0
T69CC 90956:087.296 JLINK_WriteReg(R11, 0x00000000)
T69CC 90956:087.296 - 0.003ms returns 0
T69CC 90956:087.296 JLINK_WriteReg(R12, 0x00000000)
T69CC 90956:087.296 - 0.003ms returns 0
T69CC 90956:087.296 JLINK_WriteReg(R13 (SP), 0x20001000)
T69CC 90956:087.296 - 0.004ms returns 0
T69CC 90956:087.296 JLINK_WriteReg(R14, 0x20000001)
T69CC 90956:087.296 - 0.003ms returns 0
T69CC 90956:087.296 JLINK_WriteReg(R15 (PC), 0x20000054)
T69CC 90956:087.296 - 0.004ms returns 0
T69CC 90956:087.296 JLINK_WriteReg(XPSR, 0x01000000)
T69CC 90956:087.296 - 0.004ms returns 0
T69CC 90956:087.296 JLINK_WriteReg(MSP, 0x20001000)
T69CC 90956:087.296 - 0.004ms returns 0
T69CC 90956:087.296 JLINK_WriteReg(PSP, 0x20001000)
T69CC 90956:087.296 - 0.004ms returns 0
T69CC 90956:087.296 JLINK_WriteReg(CFBP, 0x00000000)
T69CC 90956:087.296 - 0.004ms returns 0
T69CC 90956:087.296 JLINK_SetBPEx(Addr = 0x20000000, Type = 0xFFFFFFF2)
T69CC 90956:087.296   CPU_ReadMem(2 bytes @ 0x20000000)
T69CC 90956:087.296 - 0.660ms returns 0x00000001
T69CC 90956:095.488 JLINK_Go()
T69CC 90956:095.488   CPU_WriteMem(2 bytes @ 0x20000000)
T69CC 90956:095.488   CPU_ReadMem(4 bytes @ 0xE0001000)
T69CC 90956:095.488   CPU_WriteMem(4 bytes @ 0xE0002008)
T69CC 90956:095.488   CPU_WriteMem(4 bytes @ 0xE000200C)
T69CC 90956:095.488   CPU_WriteMem(4 bytes @ 0xE0002010)
T69CC 90956:095.488   CPU_WriteMem(4 bytes @ 0xE0002014)
T69CC 90956:095.488   CPU_WriteMem(4 bytes @ 0xE0002018)
T69CC 90956:095.488   CPU_WriteMem(4 bytes @ 0xE000201C)
T69CC 90956:095.488   CPU_WriteMem(4 bytes @ 0xE0001004)
T69CC 90956:103.680   Memory map 'after startup completion point' is active
T69CC 90956:103.680 - 8.884ms 
T69CC 90956:103.680 JLINK_IsHalted()
T69CC 90956:103.680   CPU_ReadMem(2 bytes @ 0x20000000)
T69CC 90956:103.680 - 3.265ms returns TRUE
T69CC 90956:103.680 JLINK_ReadReg(R15 (PC))
T69CC 90956:103.680 - 0.007ms returns 0x20000000
T69CC 90956:103.680 JLINK_ClrBPEx(BPHandle = 0x00000001)
T69CC 90956:103.680 - 0.005ms returns 0x00
T69CC 90956:103.680 JLINK_ReadReg(R0)
T69CC 90956:103.680 - 0.005ms returns 0x00000000
T69CC 90956:103.680 JLINK_HasError()
T69CC 90956:103.680 JLINK_WriteReg(R0, 0x08000000)
T69CC 90956:103.680 - 0.006ms returns 0
T69CC 90956:103.680 JLINK_WriteReg(R1, 0x00004000)
T69CC 90956:103.680 - 0.005ms returns 0
T69CC 90956:103.680 JLINK_WriteReg(R2, 0x000000FF)
T69CC 90956:103.680 - 0.005ms returns 0
T69CC 90956:103.680 JLINK_WriteReg(R3, 0x00000000)
T69CC 90956:103.680 - 0.005ms returns 0
T69CC 90956:103.680 JLINK_WriteReg(R4, 0x00000000)
T69CC 90956:103.680 - 0.005ms returns 0
T69CC 90956:103.680 JLINK_WriteReg(R5, 0x00000000)
T69CC 90956:103.680 - 0.005ms returns 0
T69CC 90956:103.680 JLINK_WriteReg(R6, 0x00000000)
T69CC 90956:103.680 - 0.005ms returns 0
T69CC 90956:103.680 JLINK_WriteReg(R7, 0x00000000)
T69CC 90956:103.680 - 0.005ms returns 0
T69CC 90956:103.680 JLINK_WriteReg(R8, 0x00000000)
T69CC 90956:103.680 - 0.004ms returns 0
T69CC 90956:103.680 JLINK_WriteReg(R9, 0x20000180)
T69CC 90956:103.680 - 0.005ms returns 0
T69CC 90956:103.680 JLINK_WriteReg(R10, 0x00000000)
T69CC 90956:103.680 - 0.005ms returns 0
T69CC 90956:103.680 JLINK_WriteReg(R11, 0x00000000)
T69CC 90956:103.680 - 0.005ms returns 0
T69CC 90956:103.680 JLINK_WriteReg(R12, 0x00000000)
T69CC 90956:103.680 - 0.005ms returns 0
T69CC 90956:103.680 JLINK_WriteReg(R13 (SP), 0x20001000)
T69CC 90956:103.680 - 0.006ms returns 0
T69CC 90956:103.680 JLINK_WriteReg(R14, 0x20000001)
T69CC 90956:103.680 - 0.005ms returns 0
T69CC 90956:103.680 JLINK_WriteReg(R15 (PC), 0x20000020)
T69CC 90956:103.680 - 0.005ms returns 0
T69CC 90956:103.680 JLINK_WriteReg(XPSR, 0x01000000)
T69CC 90956:103.680 - 0.033ms returns 0
T69CC 90956:103.680 JLINK_WriteReg(MSP, 0x20001000)
T69CC 90956:103.680 - 0.005ms returns 0
T69CC 90956:103.680 JLINK_WriteReg(PSP, 0x20001000)
T69CC 90956:103.680 - 0.005ms returns 0
T69CC 90956:103.680 JLINK_WriteReg(CFBP, 0x00000000)
T69CC 90956:103.680 - 0.005ms returns 0
T69CC 90956:103.680 JLINK_SetBPEx(Addr = 0x20000000, Type = 0xFFFFFFF2)
T69CC 90956:103.680 - 0.006ms returns 0x00000002
T69CC 90956:103.680 JLINK_Go()
T69CC 90956:103.680   CPU_ReadMem(4 bytes @ 0xE0001000)
T69CC 90956:111.872 - 2.860ms 
T69CC 90956:111.872 JLINK_IsHalted()
T69CC 90956:111.872   CPU_ReadMem(2 bytes @ 0x20000000)
T69CC 90956:111.872 - 2.570ms returns TRUE
T69CC 90956:111.872 JLINK_ReadReg(R15 (PC))
T69CC 90956:111.872 - 0.009ms returns 0x20000000
T69CC 90956:111.872 JLINK_ClrBPEx(BPHandle = 0x00000002)
T69CC 90956:111.872 - 0.006ms returns 0x00
T69CC 90956:111.872 JLINK_ReadReg(R0)
T69CC 90956:111.872 - 0.006ms returns 0x00000001
T69CC 90956:111.872 JLINK_HasError()
T69CC 90956:111.872 JLINK_WriteReg(R0, 0x08000000)
T69CC 90956:111.872 - 0.007ms returns 0
T69CC 90956:111.872 JLINK_WriteReg(R1, 0x00004000)
T69CC 90956:111.872 - 0.006ms returns 0
T69CC 90956:111.872 JLINK_WriteReg(R2, 0x000000FF)
T69CC 90956:111.872 - 0.006ms returns 0
T69CC 90956:111.872 JLINK_WriteReg(R3, 0x00000000)
T69CC 90956:111.872 - 0.006ms returns 0
T69CC 90956:111.872 JLINK_WriteReg(R4, 0x00000000)
T69CC 90956:111.872 - 0.006ms returns 0
T69CC 90956:111.872 JLINK_WriteReg(R5, 0x00000000)
T69CC 90956:111.872 - 0.006ms returns 0
T69CC 90956:111.872 JLINK_WriteReg(R6, 0x00000000)
T69CC 90956:111.872 - 0.006ms returns 0
T69CC 90956:111.872 JLINK_WriteReg(R7, 0x00000000)
T69CC 90956:111.872 - 0.006ms returns 0
T69CC 90956:111.872 JLINK_WriteReg(R8, 0x00000000)
T69CC 90956:111.872 - 0.006ms returns 0
T69CC 90956:111.872 JLINK_WriteReg(R9, 0x20000180)
T69CC 90956:111.872 - 0.007ms returns 0
T69CC 90956:111.872 JLINK_WriteReg(R10, 0x00000000)
T69CC 90956:111.872 - 0.006ms returns 0
T69CC 90956:111.872 JLINK_WriteReg(R11, 0x00000000)
T69CC 90956:111.872 - 0.005ms returns 0
T69CC 90956:111.872 JLINK_WriteReg(R12, 0x00000000)
T69CC 90956:111.872 - 0.005ms returns 0
T69CC 90956:111.872 JLINK_WriteReg(R13 (SP), 0x20001000)
T69CC 90956:111.872 - 0.006ms returns 0
T69CC 90956:111.872 JLINK_WriteReg(R14, 0x20000001)
T69CC 90956:111.872 - 0.005ms returns 0
T69CC 90956:111.872 JLINK_WriteReg(R15 (PC), 0x200000C0)
T69CC 90956:111.872 - 0.005ms returns 0
T69CC 90956:111.872 JLINK_WriteReg(XPSR, 0x01000000)
T69CC 90956:111.872 - 0.005ms returns 0
T69CC 90956:111.872 JLINK_WriteReg(MSP, 0x20001000)
T69CC 90956:111.872 - 0.005ms returns 0
T69CC 90956:111.872 JLINK_WriteReg(PSP, 0x20001000)
T69CC 90956:111.872 - 0.005ms returns 0
T69CC 90956:111.872 JLINK_WriteReg(CFBP, 0x00000000)
T69CC 90956:111.872 - 0.005ms returns 0
T69CC 90956:111.872 JLINK_SetBPEx(Addr = 0x20000000, Type = 0xFFFFFFF2)
T69CC 90956:111.872 - 0.006ms returns 0x00000003
T69CC 90956:111.872 JLINK_Go()
T69CC 90956:111.872   CPU_ReadMem(4 bytes @ 0xE0001000)
T69CC 90956:120.064 - 2.722ms 
T69CC 90956:120.064 JLINK_IsHalted()
T69CC 90956:120.064 - 0.418ms returns FALSE
T69CC 90956:120.064 JLINK_HasError()
T69CC 90956:128.256 JLINK_IsHalted()
T69CC 90956:128.256 - 0.559ms returns FALSE
T69CC 90956:136.448 JLINK_HasError()
T69CC 90956:136.448 JLINK_IsHalted()
T69CC 90956:136.448 - 0.778ms returns FALSE
T69CC 90956:136.448 JLINK_HasError()
T69CC 90956:136.448 JLINK_IsHalted()
T69CC 90956:136.448 - 0.450ms returns FALSE
T69CC 90956:136.448 JLINK_HasError()
T69CC 90956:136.448 JLINK_IsHalted()
T69CC 90956:136.448 - 0.400ms returns FALSE
T69CC 90956:136.448 JLINK_HasError()
T69CC 90956:144.640 JLINK_IsHalted()
T69CC 90956:144.640 - 0.418ms returns FALSE
T69CC 90956:144.640 JLINK_HasError()
T69CC 90956:152.832 JLINK_IsHalted()
T69CC 90956:152.832 - 0.428ms returns FALSE
T69CC 90956:152.832 JLINK_HasError()
T69CC 90956:152.832 JLINK_IsHalted()
T69CC 90956:152.832 - 0.417ms returns FALSE
T69CC 90956:152.832 JLINK_HasError()
T69CC 90956:152.832 JLINK_IsHalted()
T69CC 90956:152.832 - 0.508ms returns FALSE
T69CC 90956:152.832 JLINK_HasError()
T69CC 90956:152.832 JLINK_IsHalted()
T69CC 90956:152.832 - 0.491ms returns FALSE
T69CC 90956:152.832 JLINK_HasError()
T69CC 90956:161.024 JLINK_IsHalted()
T69CC 90956:161.024 - 0.530ms returns FALSE
T69CC 90956:161.024 JLINK_HasError()
T69CC 90956:161.024 JLINK_IsHalted()
T69CC 90956:161.024 - 0.497ms returns FALSE
T69CC 90956:161.024 JLINK_HasError()
T69CC 90956:161.024 JLINK_IsHalted()
T69CC 90956:169.216 - 0.530ms returns FALSE
T69CC 90956:169.216 JLINK_HasError()
T69CC 90956:169.216 JLINK_IsHalted()
T69CC 90956:169.216 - 0.657ms returns FALSE
T69CC 90956:169.216 JLINK_HasError()
T69CC 90956:169.216 JLINK_IsHalted()
T69CC 90956:169.216 - 0.614ms returns FALSE
T69CC 90956:169.216 JLINK_HasError()
T69CC 90956:177.408 JLINK_IsHalted()
T69CC 90956:177.408 - 0.555ms returns FALSE
T69CC 90956:177.408 JLINK_HasError()
T69CC 90956:177.408 JLINK_IsHalted()
T69CC 90956:177.408 - 0.630ms returns FALSE
T69CC 90956:177.408 JLINK_HasError()
T69CC 90956:177.408 JLINK_IsHalted()
T69CC 90956:177.408 - 0.681ms returns FALSE
T69CC 90956:177.408 JLINK_HasError()
T69CC 90956:185.600 JLINK_IsHalted()
T69CC 90956:185.600 - 0.729ms returns FALSE
T69CC 90956:185.600 JLINK_HasError()
T69CC 90956:185.600 JLINK_IsHalted()
T69CC 90956:185.600 - 0.747ms returns FALSE
T69CC 90956:185.600 JLINK_HasError()
T69CC 90956:185.600 JLINK_IsHalted()
T69CC 90956:185.600 - 0.853ms returns FALSE
T69CC 90956:185.600 JLINK_HasError()
T69CC 90956:185.600 JLINK_IsHalted()
T69CC 90956:185.600 - 1.028ms returns FALSE
T69CC 90956:185.600 JLINK_HasError()
T69CC 90956:193.792 JLINK_IsHalted()
T69CC 90956:193.792 - 0.914ms returns FALSE
T69CC 90956:193.792 JLINK_HasError()
T69CC 90956:193.792 JLINK_IsHalted()
T69CC 90956:193.792 - 0.907ms returns FALSE
T69CC 90956:193.792 JLINK_HasError()
T69CC 90956:201.984 JLINK_IsHalted()
T69CC 90956:201.984 - 0.908ms returns FALSE
T69CC 90956:201.984 JLINK_HasError()
T69CC 90956:201.984 JLINK_IsHalted()
T69CC 90956:201.984 - 0.691ms returns FALSE
T69CC 90956:201.984 JLINK_HasError()
T69CC 90956:210.176 JLINK_IsHalted()
T69CC 90956:210.176 - 0.827ms returns FALSE
T69CC 90956:210.176 JLINK_HasError()
T69CC 90956:210.176 JLINK_IsHalted()
T69CC 90956:210.176 - 0.919ms returns FALSE
T69CC 90956:210.176 JLINK_HasError()
T69CC 90956:210.176 JLINK_IsHalted()
T69CC 90956:218.368 - 0.816ms returns FALSE
T69CC 90956:218.368 JLINK_HasError()
T69CC 90956:218.368 JLINK_IsHalted()
T69CC 90956:218.368 - 0.881ms returns FALSE
T69CC 90956:218.368 JLINK_HasError()
T69CC 90956:218.368 JLINK_IsHalted()
T69CC 90956:218.368 - 1.076ms returns FALSE
T69CC 90956:218.368 JLINK_HasError()
T69CC 90956:226.560 JLINK_IsHalted()
T69CC 90956:234.752 - 1.266ms returns FALSE
T69CC 90956:234.752 JLINK_HasError()
T69CC 90956:234.752 JLINK_IsHalted()
T69CC 90956:234.752 - 0.685ms returns FALSE
T69CC 90956:234.752 JLINK_HasError()
T69CC 90956:234.752 JLINK_IsHalted()
T69CC 90956:242.944 - 0.875ms returns FALSE
T69CC 90956:242.944 JLINK_HasError()
T69CC 90956:242.944 JLINK_IsHalted()
T69CC 90956:242.944 - 0.807ms returns FALSE
T69CC 90956:242.944 JLINK_HasError()
T69CC 90956:242.944 JLINK_IsHalted()
T69CC 90956:251.136 - 1.050ms returns FALSE
T69CC 90956:251.136 JLINK_HasError()
T69CC 90956:251.136 JLINK_IsHalted()
T69CC 90956:251.136 - 0.963ms returns FALSE
T69CC 90956:251.136 JLINK_HasError()
T69CC 90956:251.136 JLINK_IsHalted()
T69CC 90956:251.136 - 1.200ms returns FALSE
T69CC 90956:251.136 JLINK_HasError()
T69CC 90956:259.328 JLINK_IsHalted()
T69CC 90956:259.328 - 0.932ms returns FALSE
T69CC 90956:259.328 JLINK_HasError()
T69CC 90956:259.328 JLINK_IsHalted()
T69CC 90956:259.328 - 0.938ms returns FALSE
T69CC 90956:259.328 JLINK_HasError()
T69CC 90956:267.520 JLINK_IsHalted()
T69CC 90956:267.520 - 0.943ms returns FALSE
T69CC 90956:267.520 JLINK_HasError()
T69CC 90956:267.520 JLINK_IsHalted()
T69CC 90956:267.520 - 0.808ms returns FALSE
T69CC 90956:267.520 JLINK_HasError()
T69CC 90956:275.712 JLINK_IsHalted()
T69CC 90956:275.712 - 0.923ms returns FALSE
T69CC 90956:275.712 JLINK_HasError()
T69CC 90956:275.712 JLINK_IsHalted()
T69CC 90956:275.712 - 0.904ms returns FALSE
T69CC 90956:275.712 JLINK_HasError()
T69CC 90956:275.712 JLINK_IsHalted()
T69CC 90956:283.904 - 0.833ms returns FALSE
T69CC 90956:283.904 JLINK_HasError()
T69CC 90956:283.904 JLINK_IsHalted()
T69CC 90956:283.904 - 1.080ms returns FALSE
T69CC 90956:283.904 JLINK_HasError()
T69CC 90956:283.904 JLINK_IsHalted()
T69CC 90956:283.904 - 1.056ms returns FALSE
T69CC 90956:283.904 JLINK_HasError()
T69CC 90956:283.904 JLINK_IsHalted()
T69CC 90956:283.904 - 0.937ms returns FALSE
T69CC 90956:283.904 JLINK_HasError()
T69CC 90956:283.904 JLINK_IsHalted()
T69CC 90956:283.904 - 1.367ms returns FALSE
T69CC 90956:283.904 JLINK_HasError()
T69CC 90956:292.096 JLINK_IsHalted()
T69CC 90956:292.096 - 0.884ms returns FALSE
T69CC 90956:292.096 JLINK_HasError()
T69CC 90956:292.096 JLINK_IsHalted()
T69CC 90956:292.096 - 0.925ms returns FALSE
T69CC 90956:292.096 JLINK_HasError()
T69CC 90956:300.288 JLINK_IsHalted()
T69CC 90956:300.288 - 1.149ms returns FALSE
T69CC 90956:300.288 JLINK_HasError()
T69CC 90956:300.288 JLINK_IsHalted()
T69CC 90956:300.288 - 0.901ms returns FALSE
T69CC 90956:300.288 JLINK_HasError()
T69CC 90956:308.480 JLINK_IsHalted()
T69CC 90956:308.480 - 0.917ms returns FALSE
T69CC 90956:308.480 JLINK_HasError()
T69CC 90956:308.480 JLINK_IsHalted()
T69CC 90956:308.480 - 0.907ms returns FALSE
T69CC 90956:308.480 JLINK_HasError()
T69CC 90956:308.480 JLINK_IsHalted()
T69CC 90956:316.672 - 1.335ms returns FALSE
T69CC 90956:316.672 JLINK_HasError()
T69CC 90956:316.672 JLINK_IsHalted()
T69CC 90956:316.672 - 0.909ms returns FALSE
T69CC 90956:316.672 JLINK_HasError()
T69CC 90956:316.672 JLINK_IsHalted()
T69CC 90956:316.672 - 0.858ms returns FALSE
T69CC 90956:316.672 JLINK_HasError()
T69CC 90956:316.672 JLINK_IsHalted()
T69CC 90956:316.672 - 0.826ms returns FALSE
T69CC 90956:316.672 JLINK_HasError()
T69CC 90956:316.672 JLINK_IsHalted()
T69CC 90956:324.864 - 0.800ms returns FALSE
T69CC 90956:324.864 JLINK_HasError()
T69CC 90956:324.864 JLINK_IsHalted()
T69CC 90956:324.864 - 0.841ms returns FALSE
T69CC 90956:324.864 JLINK_HasError()
T69CC 90956:324.864 JLINK_IsHalted()
T69CC 90956:333.056 - 1.009ms returns FALSE
T69CC 90956:333.056 JLINK_HasError()
T69CC 90956:333.056 JLINK_IsHalted()
T69CC 90956:333.056 - 0.998ms returns FALSE
T69CC 90956:333.056 JLINK_HasError()
T69CC 90956:333.056 JLINK_IsHalted()
T69CC 90956:333.056 - 0.927ms returns FALSE
T69CC 90956:333.056 JLINK_HasError()
T69CC 90956:341.248 JLINK_IsHalted()
T69CC 90956:341.248 - 0.881ms returns FALSE
T69CC 90956:341.248 JLINK_HasError()
T69CC 90956:341.248 JLINK_IsHalted()
T69CC 90956:341.248 - 0.847ms returns FALSE
T69CC 90956:341.248 JLINK_HasError()
T69CC 90956:349.440 JLINK_IsHalted()
T69CC 90956:349.440 - 0.598ms returns FALSE
T69CC 90956:357.632 JLINK_HasError()
T69CC 90956:382.208 JLINK_IsHalted()
T69CC 90956:382.208 - 0.733ms returns FALSE
T69CC 90956:382.208 JLINK_HasError()
T69CC 90956:382.208 JLINK_IsHalted()
T69CC 90956:382.208 - 0.797ms returns FALSE
T69CC 90956:382.208 JLINK_HasError()
T69CC 90956:382.208 JLINK_IsHalted()
T69CC 90956:382.208 - 0.778ms returns FALSE
T69CC 90956:382.208 JLINK_HasError()
T69CC 90956:382.208 JLINK_IsHalted()
T69CC 90956:382.208 - 0.783ms returns FALSE
T69CC 90956:382.208 JLINK_HasError()
T69CC 90956:382.208 JLINK_IsHalted()
T69CC 90956:382.208 - 0.783ms returns FALSE
T69CC 90956:382.208 JLINK_HasError()
T69CC 90956:390.400 JLINK_IsHalted()
T69CC 90956:390.400 - 0.866ms returns FALSE
T69CC 90956:390.400 JLINK_HasError()
T69CC 90956:398.592 JLINK_IsHalted()
T69CC 90956:398.592 - 0.881ms returns FALSE
T69CC 90956:398.592 JLINK_HasError()
T69CC 90956:406.784 JLINK_IsHalted()
T69CC 90956:406.784 - 0.833ms returns FALSE
T69CC 90956:406.784 JLINK_HasError()
T69CC 90956:406.784 JLINK_IsHalted()
T69CC 90956:406.784 - 0.745ms returns FALSE
T69CC 90956:406.784 JLINK_HasError()
T69CC 90956:414.976 JLINK_IsHalted()
T69CC 90956:414.976 - 0.929ms returns FALSE
T69CC 90956:414.976 JLINK_HasError()
T69CC 90956:414.976 JLINK_IsHalted()
T69CC 90956:414.976 - 0.883ms returns FALSE
T69CC 90956:414.976 JLINK_HasError()
T69CC 90956:414.976 JLINK_IsHalted()
T69CC 90956:414.976 - 0.798ms returns FALSE
T69CC 90956:414.976 JLINK_HasError()
T69CC 90956:414.976 JLINK_IsHalted()
T69CC 90956:414.976 - 0.880ms returns FALSE
T69CC 90956:414.976 JLINK_HasError()
T69CC 90956:414.976 JLINK_IsHalted()
T69CC 90956:423.168 - 0.882ms returns FALSE
T69CC 90956:423.168 JLINK_HasError()
T69CC 90956:423.168 JLINK_IsHalted()
T69CC 90956:423.168 - 0.861ms returns FALSE
T69CC 90956:423.168 JLINK_HasError()
T69CC 90956:423.168 JLINK_IsHalted()
T69CC 90956:431.360 - 0.889ms returns FALSE
T69CC 90956:431.360 JLINK_HasError()
T69CC 90956:431.360 JLINK_IsHalted()
T69CC 90956:431.360 - 0.787ms returns FALSE
T69CC 90956:431.360 JLINK_HasError()
T69CC 90956:431.360 JLINK_IsHalted()
T69CC 90956:431.360 - 0.953ms returns FALSE
T69CC 90956:431.360 JLINK_HasError()
T69CC 90956:439.552 JLINK_IsHalted()
T69CC 90956:439.552 - 0.793ms returns FALSE
T69CC 90956:439.552 JLINK_HasError()
T69CC 90956:439.552 JLINK_IsHalted()
T69CC 90956:439.552 - 0.794ms returns FALSE
T69CC 90956:439.552 JLINK_HasError()
T69CC 90956:447.744 JLINK_IsHalted()
T69CC 90956:447.744 - 0.875ms returns FALSE
T69CC 90956:447.744 JLINK_HasError()
T69CC 90956:447.744 JLINK_IsHalted()
T69CC 90956:447.744 - 0.928ms returns FALSE
T69CC 90956:447.744 JLINK_HasError()
T69CC 90956:447.744 JLINK_IsHalted()
T69CC 90956:447.744 - 0.992ms returns FALSE
T69CC 90956:447.744 JLINK_HasError()
T69CC 90956:447.744 JLINK_IsHalted()
T69CC 90956:447.744 - 0.770ms returns FALSE
T69CC 90956:447.744 JLINK_HasError()
T69CC 90956:455.936 JLINK_IsHalted()
T69CC 90956:455.936 - 0.893ms returns FALSE
T69CC 90956:455.936 JLINK_HasError()
T69CC 90956:455.936 JLINK_IsHalted()
T69CC 90956:455.936 - 0.897ms returns FALSE
T69CC 90956:455.936 JLINK_HasError()
T69CC 90956:464.128 JLINK_IsHalted()
T69CC 90956:464.128 - 0.816ms returns FALSE
T69CC 90956:464.128 JLINK_HasError()
T69CC 90956:464.128 JLINK_IsHalted()
T69CC 90956:464.128 - 0.794ms returns FALSE
T69CC 90956:464.128 JLINK_HasError()
T69CC 90956:464.128 JLINK_IsHalted()
T69CC 90956:472.320 - 0.926ms returns FALSE
T69CC 90956:472.320 JLINK_HasError()
T69CC 90956:472.320 JLINK_IsHalted()
T69CC 90956:472.320 - 0.890ms returns FALSE
T69CC 90956:472.320 JLINK_HasError()
T69CC 90956:480.512 JLINK_IsHalted()
T69CC 90956:480.512   CPU_ReadMem(2 bytes @ 0x20000000)
T69CC 90956:480.512 - 3.980ms returns TRUE
T69CC 90956:480.512 JLINK_ReadReg(R15 (PC))
T69CC 90956:480.512 - 0.048ms returns 0x20000000
T69CC 90956:480.512 JLINK_ClrBPEx(BPHandle = 0x00000003)
T69CC 90956:480.512 - 0.037ms returns 0x00
T69CC 90956:480.512 JLINK_ReadReg(R0)
T69CC 90956:480.512 - 0.032ms returns 0x00000000
T69CC 90956:480.512 JLINK_HasError()
T69CC 90956:480.512 JLINK_WriteReg(R0, 0x00000001)
T69CC 90956:480.512 - 0.043ms returns 0
T69CC 90956:480.512 JLINK_WriteReg(R1, 0x00004000)
T69CC 90956:488.704 - 0.033ms returns 0
T69CC 90956:488.704 JLINK_WriteReg(R2, 0x000000FF)
T69CC 90956:488.704 - 0.031ms returns 0
T69CC 90956:488.704 JLINK_WriteReg(R3, 0x00000000)
T69CC 90956:488.704 - 0.031ms returns 0
T69CC 90956:488.704 JLINK_WriteReg(R4, 0x00000000)
T69CC 90956:488.704 - 0.031ms returns 0
T69CC 90956:488.704 JLINK_WriteReg(R5, 0x00000000)
T69CC 90956:488.704 - 0.233ms returns 0
T69CC 90956:488.704 JLINK_WriteReg(R6, 0x00000000)
T69CC 90956:488.704 - 0.031ms returns 0
T69CC 90956:488.704 JLINK_WriteReg(R7, 0x00000000)
T69CC 90956:488.704 - 0.031ms returns 0
T69CC 90956:488.704 JLINK_WriteReg(R8, 0x00000000)
T69CC 90956:488.704 - 0.031ms returns 0
T69CC 90956:488.704 JLINK_WriteReg(R9, 0x20000180)
T69CC 90956:488.704 - 0.031ms returns 0
T69CC 90956:488.704 JLINK_WriteReg(R10, 0x00000000)
T69CC 90956:488.704 - 0.031ms returns 0
T69CC 90956:488.704 JLINK_WriteReg(R11, 0x00000000)
T69CC 90956:488.704 - 0.031ms returns 0
T69CC 90956:488.704 JLINK_WriteReg(R12, 0x00000000)
T69CC 90956:488.704 - 0.031ms returns 0
T69CC 90956:488.704 JLINK_WriteReg(R13 (SP), 0x20001000)
T69CC 90956:488.704 - 0.035ms returns 0
T69CC 90956:488.704 JLINK_WriteReg(R14, 0x20000001)
T69CC 90956:488.704 - 0.032ms returns 0
T69CC 90956:488.704 JLINK_WriteReg(R15 (PC), 0x20000086)
T69CC 90956:488.704 - 0.032ms returns 0
T69CC 90956:488.704 JLINK_WriteReg(XPSR, 0x01000000)
T69CC 90956:488.704 - 0.032ms returns 0
T69CC 90956:488.704 JLINK_WriteReg(MSP, 0x20001000)
T69CC 90956:488.704 - 0.031ms returns 0
T69CC 90956:488.704 JLINK_WriteReg(PSP, 0x20001000)
T69CC 90956:488.704 - 0.031ms returns 0
T69CC 90956:488.704 JLINK_WriteReg(CFBP, 0x00000000)
T69CC 90956:488.704 - 0.031ms returns 0
T69CC 90956:488.704 JLINK_SetBPEx(Addr = 0x20000000, Type = 0xFFFFFFF2)
T69CC 90956:488.704 - 0.038ms returns 0x00000004
T69CC 90956:488.704 JLINK_Go()
T69CC 90956:488.704   CPU_ReadMem(4 bytes @ 0xE0001000)
T69CC 90956:488.704 - 4.063ms 
T69CC 90956:488.704 JLINK_IsHalted()
T69CC 90956:496.896   CPU_ReadMem(2 bytes @ 0x20000000)
T69CC 90956:496.896 - 3.485ms returns TRUE
T69CC 90956:496.896 JLINK_ReadReg(R15 (PC))
T69CC 90956:496.896 - 0.041ms returns 0x20000000
T69CC 90956:496.896 JLINK_ClrBPEx(BPHandle = 0x00000004)
T69CC 90956:496.896 - 0.082ms returns 0x00
T69CC 90956:496.896 JLINK_ReadReg(R0)
T69CC 90956:496.896 - 0.030ms returns 0x00000000
T69CC 90956:578.816 JLINK_WriteMem(0x20000000, 0x184 Bytes, ...)
T69CC 90956:578.816   Data:  00 BE 0A E0 0D 78 2D 06 68 40 08 24 40 00 00 D3 ...
T69CC 90956:578.816   CPU_WriteMem(388 bytes @ 0x20000000)
T69CC 90956:578.816 - 1.947ms returns 0x184
T69CC 90956:578.816 JLINK_HasError()
T69CC 90956:578.816 JLINK_WriteReg(R0, 0x08000000)
T69CC 90956:578.816 - 0.008ms returns 0
T69CC 90956:578.816 JLINK_WriteReg(R1, 0x007A1200)
T69CC 90956:578.816 - 0.005ms returns 0
T69CC 90956:578.816 JLINK_WriteReg(R2, 0x00000002)
T69CC 90956:578.816 - 0.005ms returns 0
T69CC 90956:578.816 JLINK_WriteReg(R3, 0x00000000)
T69CC 90956:578.816 - 0.005ms returns 0
T69CC 90956:578.816 JLINK_WriteReg(R4, 0x00000000)
T69CC 90956:578.816 - 0.005ms returns 0
T69CC 90956:578.816 JLINK_WriteReg(R5, 0x00000000)
T69CC 90956:578.816 - 0.005ms returns 0
T69CC 90956:578.816 JLINK_WriteReg(R6, 0x00000000)
T69CC 90956:578.816 - 0.005ms returns 0
T69CC 90956:578.816 JLINK_WriteReg(R7, 0x00000000)
T69CC 90956:578.816 - 0.005ms returns 0
T69CC 90956:578.816 JLINK_WriteReg(R8, 0x00000000)
T69CC 90956:578.816 - 0.005ms returns 0
T69CC 90956:578.816 JLINK_WriteReg(R9, 0x20000180)
T69CC 90956:578.816 - 0.011ms returns 0
T69CC 90956:578.816 JLINK_WriteReg(R10, 0x00000000)
T69CC 90956:578.816 - 0.007ms returns 0
T69CC 90956:578.816 JLINK_WriteReg(R11, 0x00000000)
T69CC 90956:578.816 - 0.005ms returns 0
T69CC 90956:578.816 JLINK_WriteReg(R12, 0x00000000)
T69CC 90956:578.816 - 0.005ms returns 0
T69CC 90956:578.816 JLINK_WriteReg(R13 (SP), 0x20001000)
T69CC 90956:578.816 - 0.006ms returns 0
T69CC 90956:578.816 JLINK_WriteReg(R14, 0x20000001)
T69CC 90956:578.816 - 0.005ms returns 0
T69CC 90956:578.816 JLINK_WriteReg(R15 (PC), 0x20000054)
T69CC 90956:578.816 - 0.005ms returns 0
T69CC 90956:578.816 JLINK_WriteReg(XPSR, 0x01000000)
T69CC 90956:578.816 - 0.005ms returns 0
T69CC 90956:578.816 JLINK_WriteReg(MSP, 0x20001000)
T69CC 90956:578.816 - 0.005ms returns 0
T69CC 90956:578.816 JLINK_WriteReg(PSP, 0x20001000)
T69CC 90956:578.816 - 0.133ms returns 0
T69CC 90956:578.816 JLINK_WriteReg(CFBP, 0x00000000)
T69CC 90956:578.816 - 0.006ms returns 0
T69CC 90956:578.816 JLINK_SetBPEx(Addr = 0x20000000, Type = 0xFFFFFFF2)
T69CC 90956:578.816   CPU_ReadMem(2 bytes @ 0x20000000)
T69CC 90956:578.816 - 0.415ms returns 0x00000005
T69CC 90956:578.816 JLINK_Go()
T69CC 90956:578.816   CPU_WriteMem(2 bytes @ 0x20000000)
T69CC 90956:578.816   CPU_ReadMem(4 bytes @ 0xE0001000)
T69CC 90956:587.008 - 3.406ms 
T69CC 90956:587.008 JLINK_IsHalted()
T69CC 90956:587.008   CPU_ReadMem(2 bytes @ 0x20000000)
T69CC 90956:587.008 - 2.838ms returns TRUE
T69CC 90956:587.008 JLINK_ReadReg(R15 (PC))
T69CC 90956:587.008 - 0.012ms returns 0x20000000
T69CC 90956:587.008 JLINK_ClrBPEx(BPHandle = 0x00000005)
T69CC 90956:587.008 - 0.008ms returns 0x00
T69CC 90956:587.008 JLINK_ReadReg(R0)
T69CC 90956:587.008 - 0.007ms returns 0x00000000
T69CC 90956:587.008 JLINK_WriteMem(0x20000184, 0x27C Bytes, ...)
T69CC 90956:587.008   Data:  18 05 00 20 9D 01 00 08 25 21 00 08 DD 14 00 08 ...
T69CC 90956:587.008   CPU_WriteMem(636 bytes @ 0x20000184)
T69CC 90956:595.200 - 2.748ms returns 0x27C
T69CC 90956:595.200 JLINK_WriteMem(0x20000400, 0x184 Bytes, ...)
T69CC 90956:595.200   Data:  70 47 30 B5 05 46 00 20 03 46 00 E0 5B 1C 93 42 ...
T69CC 90956:595.200   CPU_WriteMem(388 bytes @ 0x20000400)
T69CC 90956:595.200 - 2.142ms returns 0x184
T69CC 90956:595.200 JLINK_HasError()
T69CC 90956:595.200 JLINK_WriteReg(R0, 0x08000000)
T69CC 90956:595.200 - 0.016ms returns 0
T69CC 90956:595.200 JLINK_WriteReg(R1, 0x00000400)
T69CC 90956:595.200 - 0.010ms returns 0
T69CC 90956:595.200 JLINK_WriteReg(R2, 0x20000184)
T69CC 90956:595.200 - 0.015ms returns 0
T69CC 90956:595.200 JLINK_WriteReg(R3, 0x00000000)
T69CC 90956:595.200 - 0.010ms returns 0
T69CC 90956:595.200 JLINK_WriteReg(R4, 0x00000000)
T69CC 90956:595.200 - 0.009ms returns 0
T69CC 90956:595.200 JLINK_WriteReg(R5, 0x00000000)
T69CC 90956:595.200 - 0.009ms returns 0
T69CC 90956:595.200 JLINK_WriteReg(R6, 0x00000000)
T69CC 90956:595.200 - 0.009ms returns 0
T69CC 90956:595.200 JLINK_WriteReg(R7, 0x00000000)
T69CC 90956:595.200 - 0.010ms returns 0
T69CC 90956:595.200 JLINK_WriteReg(R8, 0x00000000)
T69CC 90956:595.200 - 0.010ms returns 0
T69CC 90956:595.200 JLINK_WriteReg(R9, 0x20000180)
T69CC 90956:595.200 - 0.009ms returns 0
T69CC 90956:595.200 JLINK_WriteReg(R10, 0x00000000)
T69CC 90956:595.200 - 0.010ms returns 0
T69CC 90956:595.200 JLINK_WriteReg(R11, 0x00000000)
T69CC 90956:595.200 - 0.010ms returns 0
T69CC 90956:595.200 JLINK_WriteReg(R12, 0x00000000)
T69CC 90956:595.200 - 0.009ms returns 0
T69CC 90956:595.200 JLINK_WriteReg(R13 (SP), 0x20001000)
T69CC 90956:595.200 - 0.010ms returns 0
T69CC 90956:595.200 JLINK_WriteReg(R14, 0x20000001)
T69CC 90956:595.200 - 0.010ms returns 0
T69CC 90956:595.200 JLINK_WriteReg(R15 (PC), 0x2000010C)
T69CC 90956:595.200 - 0.010ms returns 0
T69CC 90956:595.200 JLINK_WriteReg(XPSR, 0x01000000)
T69CC 90956:595.200 - 0.010ms returns 0
T69CC 90956:595.200 JLINK_WriteReg(MSP, 0x20001000)
T69CC 90956:595.200 - 0.009ms returns 0
T69CC 90956:595.200 JLINK_WriteReg(PSP, 0x20001000)
T69CC 90956:595.200 - 0.010ms returns 0
T69CC 90956:595.200 JLINK_WriteReg(CFBP, 0x00000000)
T69CC 90956:595.200 - 0.009ms returns 0
T69CC 90956:595.200 JLINK_SetBPEx(Addr = 0x20000000, Type = 0xFFFFFFF2)
T69CC 90956:595.200 - 0.012ms returns 0x00000006
T69CC 90956:595.200 JLINK_Go()
T69CC 90956:595.200   CPU_ReadMem(4 bytes @ 0xE0001000)
T69CC 90956:595.200 - 2.784ms 
T69CC 90956:595.200 JLINK_IsHalted()
T69CC 90956:595.200 - 0.563ms returns FALSE
T69CC 90956:603.392 JLINK_HasError()
T69CC 90956:603.392 JLINK_IsHalted()
T69CC 90956:611.584   CPU_ReadMem(2 bytes @ 0x20000000)
T69CC 90956:611.584 - 3.138ms returns TRUE
T69CC 90956:611.584 JLINK_ReadReg(R15 (PC))
T69CC 90956:611.584 - 0.024ms returns 0x20000000
T69CC 90956:611.584 JLINK_ClrBPEx(BPHandle = 0x00000006)
T69CC 90956:611.584 - 0.017ms returns 0x00
T69CC 90956:611.584 JLINK_ReadReg(R0)
T69CC 90956:611.584 - 0.027ms returns 0x00000000
T69CC 90956:611.584 JLINK_WriteMem(0x20000184, 0x27C Bytes, ...)
T69CC 90956:611.584   Data:  23 F0 00 41 50 EA 05 02 20 D0 54 EA 01 02 1D D0 ...
T69CC 90956:611.584   CPU_WriteMem(636 bytes @ 0x20000184)
T69CC 90956:611.584 - 2.796ms returns 0x27C
T69CC 90956:611.584 JLINK_WriteMem(0x20000400, 0x184 Bytes, ...)
T69CC 90956:611.584   Data:  05 D0 01 20 04 E0 20 46 39 46 BD E8 F0 8D 00 20 ...
T69CC 90956:611.584   CPU_WriteMem(388 bytes @ 0x20000400)
T69CC 90956:611.584 - 1.969ms returns 0x184
T69CC 90956:611.584 JLINK_HasError()
T69CC 90956:611.584 JLINK_WriteReg(R0, 0x08000400)
T69CC 90956:611.584 - 0.025ms returns 0
T69CC 90956:611.584 JLINK_WriteReg(R1, 0x00000400)
T69CC 90956:611.584 - 0.016ms returns 0
T69CC 90956:611.584 JLINK_WriteReg(R2, 0x20000184)
T69CC 90956:611.584 - 0.016ms returns 0
T69CC 90956:611.584 JLINK_WriteReg(R3, 0x00000000)
T69CC 90956:611.584 - 0.015ms returns 0
T69CC 90956:611.584 JLINK_WriteReg(R4, 0x00000000)
T69CC 90956:611.584 - 0.015ms returns 0
T69CC 90956:611.584 JLINK_WriteReg(R5, 0x00000000)
T69CC 90956:611.584 - 0.015ms returns 0
T69CC 90956:611.584 JLINK_WriteReg(R6, 0x00000000)
T69CC 90956:611.584 - 0.016ms returns 0
T69CC 90956:611.584 JLINK_WriteReg(R7, 0x00000000)
T69CC 90956:611.584 - 0.015ms returns 0
T69CC 90956:611.584 JLINK_WriteReg(R8, 0x00000000)
T69CC 90956:611.584 - 0.015ms returns 0
T69CC 90956:611.584 JLINK_WriteReg(R9, 0x20000180)
T69CC 90956:611.584 - 0.015ms returns 0
T69CC 90956:611.584 JLINK_WriteReg(R10, 0x00000000)
T69CC 90956:611.584 - 0.015ms returns 0
T69CC 90956:611.584 JLINK_WriteReg(R11, 0x00000000)
T69CC 90956:611.584 - 0.015ms returns 0
T69CC 90956:611.584 JLINK_WriteReg(R12, 0x00000000)
T69CC 90956:611.584 - 0.015ms returns 0
T69CC 90956:611.584 JLINK_WriteReg(R13 (SP), 0x20001000)
T69CC 90956:611.584 - 0.019ms returns 0
T69CC 90956:611.584 JLINK_WriteReg(R14, 0x20000001)
T69CC 90956:611.584 - 0.016ms returns 0
T69CC 90956:611.584 JLINK_WriteReg(R15 (PC), 0x2000010C)
T69CC 90956:611.584 - 0.016ms returns 0
T69CC 90956:611.584 JLINK_WriteReg(XPSR, 0x01000000)
T69CC 90956:611.584 - 0.016ms returns 0
T69CC 90956:611.584 JLINK_WriteReg(MSP, 0x20001000)
T69CC 90956:611.584 - 0.015ms returns 0
T69CC 90956:611.584 JLINK_WriteReg(PSP, 0x20001000)
T69CC 90956:611.584 - 0.015ms returns 0
T69CC 90956:611.584 JLINK_WriteReg(CFBP, 0x00000000)
T69CC 90956:611.584 - 0.015ms returns 0
T69CC 90956:611.584 JLINK_SetBPEx(Addr = 0x20000000, Type = 0xFFFFFFF2)
T69CC 90956:611.584 - 0.019ms returns 0x00000007
T69CC 90956:611.584 JLINK_Go()
T69CC 90956:611.584   CPU_ReadMem(4 bytes @ 0xE0001000)
T69CC 90956:619.776 - 3.033ms 
T69CC 90956:619.776 JLINK_IsHalted()
T69CC 90956:619.776 - 0.552ms returns FALSE
T69CC 90956:619.776 JLINK_HasError()
T69CC 90956:644.352 JLINK_IsHalted()
T69CC 90956:644.352   CPU_ReadMem(2 bytes @ 0x20000000)
T69CC 90956:644.352 - 3.541ms returns TRUE
T69CC 90956:644.352 JLINK_ReadReg(R15 (PC))
T69CC 90956:644.352 - 0.022ms returns 0x20000000
T69CC 90956:644.352 JLINK_ClrBPEx(BPHandle = 0x00000007)
T69CC 90956:644.352 - 0.016ms returns 0x00
T69CC 90956:644.352 JLINK_ReadReg(R0)
T69CC 90956:644.352 - 0.015ms returns 0x00000000
T69CC 90956:644.352 JLINK_WriteMem(0x20000184, 0x27C Bytes, ...)
T69CC 90956:644.352   Data:  63 EB 04 03 99 42 08 BF 90 42 30 BD 06 4C 07 4D ...
T69CC 90956:644.352   CPU_WriteMem(636 bytes @ 0x20000184)
T69CC 90956:644.352 - 2.744ms returns 0x27C
T69CC 90956:644.352 JLINK_WriteMem(0x20000400, 0x184 Bytes, ...)
T69CC 90956:644.352   Data:  82 46 00 2E D1 DC 53 E0 00 2E 51 DD BA F1 65 0F ...
T69CC 90956:644.352   CPU_WriteMem(388 bytes @ 0x20000400)
T69CC 90956:644.352 - 2.119ms returns 0x184
T69CC 90956:644.352 JLINK_HasError()
T69CC 90956:644.352 JLINK_WriteReg(R0, 0x08000800)
T69CC 90956:644.352 - 0.026ms returns 0
T69CC 90956:644.352 JLINK_WriteReg(R1, 0x00000400)
T69CC 90956:644.352 - 0.018ms returns 0
T69CC 90956:644.352 JLINK_WriteReg(R2, 0x20000184)
T69CC 90956:644.352 - 0.079ms returns 0
T69CC 90956:644.352 JLINK_WriteReg(R3, 0x00000000)
T69CC 90956:644.352 - 0.024ms returns 0
T69CC 90956:644.352 JLINK_WriteReg(R4, 0x00000000)
T69CC 90956:644.352 - 0.016ms returns 0
T69CC 90956:644.352 JLINK_WriteReg(R5, 0x00000000)
T69CC 90956:644.352 - 0.015ms returns 0
T69CC 90956:644.352 JLINK_WriteReg(R6, 0x00000000)
T69CC 90956:644.352 - 0.015ms returns 0
T69CC 90956:644.352 JLINK_WriteReg(R7, 0x00000000)
T69CC 90956:644.352 - 0.015ms returns 0
T69CC 90956:644.352 JLINK_WriteReg(R8, 0x00000000)
T69CC 90956:644.352 - 0.015ms returns 0
T69CC 90956:644.352 JLINK_WriteReg(R9, 0x20000180)
T69CC 90956:644.352 - 0.015ms returns 0
T69CC 90956:644.352 JLINK_WriteReg(R10, 0x00000000)
T69CC 90956:644.352 - 0.015ms returns 0
T69CC 90956:644.352 JLINK_WriteReg(R11, 0x00000000)
T69CC 90956:644.352 - 0.015ms returns 0
T69CC 90956:644.352 JLINK_WriteReg(R12, 0x00000000)
T69CC 90956:644.352 - 0.015ms returns 0
T69CC 90956:644.352 JLINK_WriteReg(R13 (SP), 0x20001000)
T69CC 90956:644.352 - 0.017ms returns 0
T69CC 90956:644.352 JLINK_WriteReg(R14, 0x20000001)
T69CC 90956:644.352 - 0.017ms returns 0
T69CC 90956:644.352 JLINK_WriteReg(R15 (PC), 0x2000010C)
T69CC 90956:644.352 - 0.016ms returns 0
T69CC 90956:644.352 JLINK_WriteReg(XPSR, 0x01000000)
T69CC 90956:644.352 - 0.016ms returns 0
T69CC 90956:644.352 JLINK_WriteReg(MSP, 0x20001000)
T69CC 90956:644.352 - 0.015ms returns 0
T69CC 90956:644.352 JLINK_WriteReg(PSP, 0x20001000)
T69CC 90956:644.352 - 0.015ms returns 0
T69CC 90956:652.544 JLINK_WriteReg(CFBP, 0x00000000)
T69CC 90956:652.544 - 0.015ms returns 0
T69CC 90956:652.544 JLINK_SetBPEx(Addr = 0x20000000, Type = 0xFFFFFFF2)
T69CC 90956:652.544 - 0.021ms returns 0x00000008
T69CC 90956:652.544 JLINK_Go()
T69CC 90956:652.544   CPU_ReadMem(4 bytes @ 0xE0001000)
T69CC 90956:652.544 - 3.200ms 
T69CC 90956:652.544 JLINK_IsHalted()
T69CC 90956:652.544 - 0.606ms returns FALSE
T69CC 90956:652.544 JLINK_HasError()
T69CC 90956:652.544 JLINK_IsHalted()
T69CC 90956:652.544 - 0.677ms returns FALSE
T69CC 90956:660.736 JLINK_HasError()
T69CC 90956:660.736 JLINK_IsHalted()
T69CC 90956:660.736   CPU_ReadMem(2 bytes @ 0x20000000)
T69CC 90956:660.736 - 3.772ms returns TRUE
T69CC 90956:660.736 JLINK_ReadReg(R15 (PC))
T69CC 90956:660.736 - 0.030ms returns 0x20000000
T69CC 90956:660.736 JLINK_ClrBPEx(BPHandle = 0x00000008)
T69CC 90956:660.736 - 0.022ms returns 0x00
T69CC 90956:660.736 JLINK_ReadReg(R0)
T69CC 90956:660.736 - 0.020ms returns 0x00000000
T69CC 90956:668.928 JLINK_WriteMem(0x20000184, 0x27C Bytes, ...)
T69CC 90956:668.928   Data:  44 33 00 08 0E B5 40 F2 33 42 02 92 00 22 CD E9 ...
T69CC 90956:668.928   CPU_WriteMem(636 bytes @ 0x20000184)
T69CC 90956:668.928 - 3.486ms returns 0x27C
T69CC 90956:668.928 JLINK_WriteMem(0x20000400, 0x184 Bytes, ...)
T69CC 90956:668.928   Data:  00 00 02 40 00 10 01 40 0C ED 00 E0 25 E0 00 E0 ...
T69CC 90956:668.928   CPU_WriteMem(388 bytes @ 0x20000400)
T69CC 90956:668.928 - 2.072ms returns 0x184
T69CC 90956:668.928 JLINK_HasError()
T69CC 90956:668.928 JLINK_WriteReg(R0, 0x08000C00)
T69CC 90956:668.928 - 0.031ms returns 0
T69CC 90956:668.928 JLINK_WriteReg(R1, 0x00000400)
T69CC 90956:668.928 - 0.021ms returns 0
T69CC 90956:668.928 JLINK_WriteReg(R2, 0x20000184)
T69CC 90956:668.928 - 0.020ms returns 0
T69CC 90956:668.928 JLINK_WriteReg(R3, 0x00000000)
T69CC 90956:668.928 - 0.020ms returns 0
T69CC 90956:668.928 JLINK_WriteReg(R4, 0x00000000)
T69CC 90956:668.928 - 0.019ms returns 0
T69CC 90956:668.928 JLINK_WriteReg(R5, 0x00000000)
T69CC 90956:668.928 - 0.019ms returns 0
T69CC 90956:668.928 JLINK_WriteReg(R6, 0x00000000)
T69CC 90956:668.928 - 0.019ms returns 0
T69CC 90956:677.120 JLINK_WriteReg(R7, 0x00000000)
T69CC 90956:677.120 - 0.019ms returns 0
T69CC 90956:677.120 JLINK_WriteReg(R8, 0x00000000)
T69CC 90956:677.120 - 0.019ms returns 0
T69CC 90956:677.120 JLINK_WriteReg(R9, 0x20000180)
T69CC 90956:677.120 - 0.020ms returns 0
T69CC 90956:677.120 JLINK_WriteReg(R10, 0x00000000)
T69CC 90956:677.120 - 0.019ms returns 0
T69CC 90956:677.120 JLINK_WriteReg(R11, 0x00000000)
T69CC 90956:677.120 - 0.039ms returns 0
T69CC 90956:677.120 JLINK_WriteReg(R12, 0x00000000)
T69CC 90956:677.120 - 0.019ms returns 0
T69CC 90956:677.120 JLINK_WriteReg(R13 (SP), 0x20001000)
T69CC 90956:677.120 - 0.022ms returns 0
T69CC 90956:677.120 JLINK_WriteReg(R14, 0x20000001)
T69CC 90956:677.120 - 0.018ms returns 0
T69CC 90956:677.120 JLINK_WriteReg(R15 (PC), 0x2000010C)
T69CC 90956:677.120 - 0.018ms returns 0
T69CC 90956:677.120 JLINK_WriteReg(XPSR, 0x01000000)
T69CC 90956:677.120 - 0.018ms returns 0
T69CC 90956:677.120 JLINK_WriteReg(MSP, 0x20001000)
T69CC 90956:677.120 - 0.017ms returns 0
T69CC 90956:677.120 JLINK_WriteReg(PSP, 0x20001000)
T69CC 90956:677.120 - 0.018ms returns 0
T69CC 90956:677.120 JLINK_WriteReg(CFBP, 0x00000000)
T69CC 90956:677.120 - 0.017ms returns 0
T69CC 90956:677.120 JLINK_SetBPEx(Addr = 0x20000000, Type = 0xFFFFFFF2)
T69CC 90956:677.120 - 0.022ms returns 0x00000009
T69CC 90956:677.120 JLINK_Go()
T69CC 90956:677.120   CPU_ReadMem(4 bytes @ 0xE0001000)
T69CC 90956:677.120 - 3.769ms 
T69CC 90956:677.120 JLINK_IsHalted()
T69CC 90956:677.120 - 0.749ms returns FALSE
T69CC 90956:677.120 JLINK_HasError()
T69CC 90956:677.120 JLINK_IsHalted()
T69CC 90956:677.120 - 0.781ms returns FALSE
T69CC 90956:677.120 JLINK_HasError()
T69CC 90956:677.120 JLINK_IsHalted()
T69CC 90956:685.312   CPU_ReadMem(2 bytes @ 0x20000000)
T69CC 90956:685.312 - 3.634ms returns TRUE
T69CC 90956:685.312 JLINK_ReadReg(R15 (PC))
T69CC 90956:685.312 - 0.040ms returns 0x20000000
T69CC 90956:685.312 JLINK_ClrBPEx(BPHandle = 0x00000009)
T69CC 90956:685.312 - 0.031ms returns 0x00
T69CC 90956:685.312 JLINK_ReadReg(R0)
T69CC 90956:685.312 - 0.030ms returns 0x00000000
T69CC 90956:685.312 JLINK_WriteMem(0x20000184, 0x27C Bytes, ...)
T69CC 90956:685.312   Data:  20 60 20 68 A9 68 20 F0 F0 00 08 43 20 60 28 78 ...
